T1638 986:601 SEGGER J-Link V6.50b Log File (0001ms, 4972ms total)
T1638 986:601 DLL Compiled: Sep  6 2019 17:57:35 (0001ms, 4972ms total)
T1638 986:601 Logging started @ 2020-04-07 01:06 (0001ms, 4972ms total)
T1638 986:602 JLINK_SetWarnOutHandler(...) (0000ms, 4972ms total)
T1638 986:602 JLINK_OpenEx(...)
Firmware: J-Link V9 compiled May 17 2019 09:50:41
Hardware: V9.60
S/N: 59600168
Feature(s): RDI, GDB, FlashDL, FlashBP, JFlash
TELNET listener socket opened on port 19021WEBSRV 
Starting webserver (0050ms, 5022ms total)
T1638 986:602 WEBSRV Webserver running on local port 19081 (0051ms, 5023ms total)
T1638 986:602   returns O.K. (0051ms, 5023ms total)
T1638 986:653 JLINK_GetEmuCaps()  returns 0xB9FF7BBF (0002ms, 5025ms total)
T1638 986:655 JLINK_TIF_GetAvailable(...) (0001ms, 5026ms total)
T1638 986:656 JLINK_SetErrorOutHandler(...) (0000ms, 5026ms total)
T1638 986:656 JLINK_ExecCommand("ProjectFile = "C:\Users\64408\Desktop\IK-52832-V2DK开发板配套资料-B盘\6：SDK和试验说明\nRF5_SDK_16.0.0_98a08e2\examples\ble_peripheral\ble_app_blinky\pca10040\s132\arm5_no_packs\JLinkSettings.ini"", ...).   returns 0x00 (0172ms, 5198ms total)
T1638 986:834 JLINK_ExecCommand("Device = nRF52832_xxAA", ...). Device "NRF52832_XXAA" selected.  returns 0x00 (0007ms, 5205ms total)
T1638 986:841 JLINK_ExecCommand("DisableConnectionTimeout", ...).   returns 0x01 (0000ms, 5205ms total)
T1638 986:841 JLINK_GetHardwareVersion()  returns 0x17700 (0000ms, 5205ms total)
T1638 986:841 JLINK_GetDLLVersion()  returns 65002 (0000ms, 5205ms total)
T1638 986:841 JLINK_GetFirmwareString(...) (0000ms, 5205ms total)
T1638 986:847 JLINK_GetDLLVersion()  returns 65002 (0000ms, 5205ms total)
T1638 986:847 JLINK_GetCompileDateTime() (0001ms, 5206ms total)
T1638 986:850 JLINK_GetFirmwareString(...) (0000ms, 5206ms total)
T1638 986:853 JLINK_GetHardwareVersion()  returns 0x17700 (0000ms, 5206ms total)
T1638 986:862 JLINK_TIF_Select(JLINKARM_TIF_SWD)  returns 0x00 (0001ms, 5207ms total)
T1638 986:863 JLINK_SetSpeed(5000) (0000ms, 5207ms total)
T1638 986:863 JLINK_GetId() >0x10B TIF>Found SW-DP with ID 0x2BA01477 >0x0D TIF> >0x28 TIF> >0x0D TIF> >0x28 TIF> >0x10B TIF>Found SW-DP with ID 0x2BA01477 >0x0D TIF> >0x28 TIF> >0x0D TIF> >0x28 TIF> >0x0D TIF> >0x28 TIF> >0x0D TIF> >0x28 TIF> >0x35 TIF> >0x0D TIF> >0x28 TIF>Scanning AP map to find all available APs >0x0D TIF> >0x28 TIF> >0x35 TIF> >0x35 TIF> >0x0D TIF> >0x28 TIF> >0x35 TIF> >0x35 TIF> >0x0D TIF> >0x28 TIF> >0x35 TIF> >0x35 TIF>AP[2]: Stopped AP scan as end of AP map has been reached
AP[0]: AHB-AP (IDR: 0x24770011)AP[1]: JTAG-AP (IDR: 0x02880000)Iterating through AP map to find AHB-AP to use >0x42 TIF> >0x28 TIF> >0x0D TIF> >0x28 TIF> >0x35 TIF> >0x35 TIF> >0x42 TIF> >0x28 TIF> >0x0D TIF> >0x28 TIF> >0x0D TIF> >0x28 TIF> >0x35 TIF> >0x35 TIF>AP[0]: Core foundAP[0]: AHB-AP ROM base: 0xE00FF000 >0x0D TIF> >0x28 TIF> >0x0D TIF> >0x28 TIF> >0x0D TIF> >0x28 TIF> >0x35 TIF> >0x35 TIF>CPUID register: 0x410FC241. Implementer code: 0x41 (ARM)Found Cortex-M4 r0p1, Little endian.
 -- Max. mem block: 0x00010D70 -- CPU_ReadMem(4 bytes @ 0xE000EDF0) -- CPU_WriteMem(4 bytes @ 0xE000EDF0) -- CPU_ReadMem(4 bytes @ 0xE0002000)FPUnit: 6 code (BP) slots and 2 literal slots -- CPU_ReadMem(4 bytes @ 0xE000EDFC) -- CPU_WriteMem(4 bytes @ 0xE000EDFC) -- CPU_ReadMem(4 bytes @ 0xE0001000) -- CPU_WriteMem(4 bytes @ 0xE0001000) -- CPU_ReadMem(4 bytes @ 0xE000ED88) -- CPU_WriteMem(4 bytes @ 0xE000ED88) -- CPU_ReadMem(4 bytes @ 0xE000ED88) -- CPU_WriteMem(4 bytes @ 0xE000ED88)CoreSight components:
ROMTbl[0] @ E00FF000 -- CPU_ReadMem(16 bytes @ 0xE00FF000) -- CPU_ReadMem(16 bytes @ 0xE000EFF0) -- CPU_ReadMem(16 bytes @ 0xE000EFE0)ROMTbl[0][0]: E000E000, CID: B105E00D, PID: 000BB00C SCS-M7 -- CPU_ReadMem(16 bytes @ 0xE0001FF0) -- CPU_ReadMem(16 bytes @ 0xE0001FE0)ROMTbl[0][1]: E0001000, CID: B105E00D, PID: 003BB002 DWT -- CPU_ReadMem(16 bytes @ 0xE0002FF0) -- CPU_ReadMem(16 bytes @ 0xE0002FE0)ROMTbl[0][2]: E0002000, CID: B105E00D, PID: 002BB003 FPB -- CPU_ReadMem(16 bytes @ 0xE0000FF0)
 -- CPU_ReadMem(16 bytes @ 0xE0000FE0)ROMTbl[0][3]: E0000000, CID: B105E00D, PID: 003BB001 ITM -- CPU_ReadMem(16 bytes @ 0xE00FF010) -- CPU_ReadMem(16 bytes @ 0xE0040FF0) -- CPU_ReadMem(16 bytes @ 0xE0040FE0)ROMTbl[0][4]: E0040000, CID: B105900D, PID: 000BB9A1 TPIU -- CPU_ReadMem(16 bytes @ 0xE0041FF0) -- CPU_ReadMem(16 bytes @ 0xE0041FE0)ROMTbl[0][5]: E0041000, CID: B105900D, PID: 000BB925 ETM >0x35 TIF>  returns 0x2BA01477 (0172ms, 5379ms total)
T1638 987:035 JLINK_GetDLLVersion()  returns 65002 (0000ms, 5379ms total)
T1638 987:035 JLINK_CORE_GetFound()  returns 0xE0000FF (0000ms, 5379ms total)
T1638 987:035 JLINK_GetDebugInfo(0x100 = JLINKARM_ROM_TABLE_ADDR_INDEX) -- Value=0xE00FF000  returns 0x00 (0000ms, 5379ms total)
T1638 987:037 JLINK_GetDebugInfo(0x100 = JLINKARM_ROM_TABLE_ADDR_INDEX) -- Value=0xE00FF000  returns 0x00 (0000ms, 5379ms total)
T1638 987:037 JLINK_GetDebugInfo(0x101 = JLINKARM_DEBUG_INFO_ETM_ADDR_INDEX) -- Value=0xE0041000  returns 0x00 (0000ms, 5379ms total)
T1638 987:037 JLINK_ReadMemEx(0xE0041FD0, 0x0020 Bytes, ..., Flags = 0x02000004) -- CPU_ReadMem(32 bytes @ 0xE0041FD0) - Data: 04 00 00 00 00 00 00 00 00 00 00 00 00 00 00 00 ...  returns 0x20 (0001ms, 5380ms total)
T1638 987:038 JLINK_GetDebugInfo(0x102 = JLINKARM_DEBUG_INFO_MTB_ADDR_INDEX) -- Value=0x00000000  returns 0x00 (0000ms, 5380ms total)
T1638 987:038 JLINK_GetDebugInfo(0x103 = JLINKARM_DEBUG_INFO_TPIU_ADDR_INDEX) -- Value=0xE0040000  returns 0x00 (0000ms, 5380ms total)
T1638 987:038 JLINK_GetDebugInfo(0x104 = JLINKARM_DEBUG_INFO_ITM_ADDR_INDEX) -- Value=0xE0000000  returns 0x00 (0000ms, 5380ms total)
T1638 987:038 JLINK_GetDebugInfo(0x105 = JLINKARM_DEBUG_INFO_DWT_ADDR_INDEX) -- Value=0xE0001000  returns 0x00 (0000ms, 5380ms total)
T1638 987:038 JLINK_GetDebugInfo(0x106 = JLINKARM_DEBUG_INFO_FPB_ADDR_INDEX) -- Value=0xE0002000  returns 0x00 (0000ms, 5380ms total)
T1638 987:038 JLINK_GetDebugInfo(0x107 = JLINKARM_DEBUG_INFO_NVIC_ADDR_INDEX) -- Value=0xE000E000  returns 0x00 (0000ms, 5380ms total)
T1638 987:038 JLINK_GetDebugInfo(0x10C = JLINKARM_DEBUG_INFO_DBG_ADDR_INDEX) -- Value=0xE000EDF0  returns 0x00 (0000ms, 5380ms total)
T1638 987:038 JLINK_GetDebugInfo(0x01 = Unknown) -- Value=0x00000001  returns 0x00 (0000ms, 5380ms total)
T1638 987:038 JLINK_ReadMemU32(0xE000ED00, 0x0001 Items, ...) -- CPU_ReadMem(4 bytes @ 0xE000ED00) - Data: 41 C2 0F 41  returns 1 (0000ms, 5380ms total)
T1638 987:038 JLINK_GetDebugInfo(0x10F = JLINKARM_DEBUG_INFO_HAS_CORTEX_M_SECURITY_EXT_INDEX) -- Value=0x00000000  returns 0x00 (0000ms, 5380ms total)
T1638 987:038 JLINK_SetResetType(JLINKARM_CM3_RESET_TYPE_NORMAL)  returns JLINKARM_CM3_RESET_TYPE_NORMAL (0000ms, 5380ms total)
T1638 987:038 JLINK_Reset() -- CPU is running -- CPU_WriteMem(4 bytes @ 0xE000EDF0) -- CPU is running -- CPU_WriteMem(4 bytes @ 0xE000EDFC)Reset: Halt core after reset via DEMCR.VC_CORERESET. >0x35 TIF>Reset: Reset device via AIRCR.SYSRESETREQ. -- CPU is running -- CPU_WriteMem(4 bytes @ 0xE000ED0C) >0x0D TIF> >0x28 TIF> -- CPU_ReadMem(4 bytes @ 0xE000EDF0) -- CPU_ReadMem(4 bytes @ 0xE000EDF0) -- CPU is running -- CPU_WriteMem(4 bytes @ 0xE000EDF0) -- CPU is running -- CPU_WriteMem(4 bytes @ 0xE000EDFC)
 -- CPU_ReadMem(4 bytes @ 0xE000EDF0) -- CPU_WriteMem(4 bytes @ 0xE0002000) -- CPU_ReadMem(4 bytes @ 0xE000EDFC) -- CPU_ReadMem(4 bytes @ 0xE0001000) (0069ms, 5449ms total)
T1638 987:107 JLINK_Halt()  returns 0x00 (0000ms, 5449ms total)
T1638 987:107 JLINK_ReadMemU32(0xE000EDF0, 0x0001 Items, ...) -- CPU_ReadMem(4 bytes @ 0xE000EDF0) - Data: 03 00 03 00  returns 1 (0000ms, 5449ms total)
T1638 987:107 JLINK_WriteU32(0xE000EDF0, 0xA05F0003) -- CPU_WriteMem(4 bytes @ 0xE000EDF0)  returns 0 (0001ms, 5450ms total)
T1638 987:108 JLINK_WriteU32(0xE000EDFC, 0x01000000) -- CPU_WriteMem(4 bytes @ 0xE000EDFC)  returns 0 (0000ms, 5450ms total)
T1638 987:122 JLINK_GetHWStatus(...)  returns 0x00 (0001ms, 5451ms total)
T1638 987:128 JLINK_GetNumBPUnits(Type = 0xFFFFFF00)  returns 0x06 (0000ms, 5451ms total)
T1638 987:128 JLINK_GetNumBPUnits(Type = 0xF0)  returns 0x2000 (0000ms, 5451ms total)
T1638 987:128 JLINK_GetNumWPUnits()  returns 0x04 (0001ms, 5452ms total)
T1638 987:135 JLINK_GetSpeed()  returns 0xFA0 (0000ms, 5452ms total)
T1638 987:141 JLINK_ReadMemU32(0xE000E004, 0x0001 Items, ...) -- CPU_ReadMem(4 bytes @ 0xE000E004) - Data: 01 00 00 00  returns 1 (0000ms, 5452ms total)
T1638 987:141 JLINK_ReadMemU32(0xE000E004, 0x0001 Items, ...) -- CPU_ReadMem(4 bytes @ 0xE000E004) - Data: 01 00 00 00  returns 1 (0000ms, 5452ms total)
T1638 987:141 JLINK_WriteMemEx(0xE0001000, 0x001C Bytes, ..., Flags = 0x02000004) - Data: 01 00 00 00 00 00 00 00 00 00 00 00 00 00 00 00 ... -- CPU_WriteMem(28 bytes @ 0xE0001000)  returns 0x1C (0001ms, 5453ms total)
T1638 987:142 JLINK_Halt()  returns 0x00 (0000ms, 5453ms total)
T1638 987:142 JLINK_IsHalted()  returns TRUE (0000ms, 5453ms total)
T1638 987:145 JLINK_WriteMem(0x20000000, 0x0708 Bytes, ...) - Data: 00 BE 0A E0 0D 78 2D 06 68 40 08 24 40 00 00 D3 ... -- CPU_WriteMem(1800 bytes @ 0x20000000)  returns 0x708 (0008ms, 5461ms total)
T1638 987:153 JLINK_WriteReg(R0, 0x00000000)  returns 0x00 (0000ms, 5461ms total)
T1638 987:153 JLINK_WriteReg(R1, 0x03D09000)  returns 0x00 (0000ms, 5461ms total)
T1638 987:153 JLINK_WriteReg(R2, 0x00000001)  returns 0x00 (0000ms, 5461ms total)
T1638 987:153 JLINK_WriteReg(R3, 0x00000000)  returns 0x00 (0000ms, 5461ms total)
T1638 987:153 JLINK_WriteReg(R4, 0x00000000)  returns 0x00 (0000ms, 5461ms total)
T1638 987:153 JLINK_WriteReg(R5, 0x00000000)  returns 0x00 (0000ms, 5461ms total)
T1638 987:153 JLINK_WriteReg(R6, 0x00000000)  returns 0x00 (0000ms, 5461ms total)
T1638 987:153 JLINK_WriteReg(R7, 0x00000000)  returns 0x00 (0000ms, 5461ms total)
T1638 987:153 JLINK_WriteReg(R8, 0x00000000)  returns 0x00 (0000ms, 5461ms total)
T1638 987:153 JLINK_WriteReg(R9, 0x20000704)  returns 0x00 (0000ms, 5461ms total)
T1638 987:153 JLINK_WriteReg(R10, 0x00000000)  returns 0x00 (0000ms, 5461ms total)
T1638 987:153 JLINK_WriteReg(R11, 0x00000000)  returns 0x00 (0000ms, 5461ms total)
T1638 987:153 JLINK_WriteReg(R12, 0x00000000)  returns 0x00 (0000ms, 5461ms total)
T1638 987:153 JLINK_WriteReg(R13 (SP), 0x20002000)  returns 0x00 (0000ms, 5461ms total)
T1638 987:153 JLINK_WriteReg(R14, 0x20000001)  returns 0x00 (0000ms, 5461ms total)
T1638 987:153 JLINK_WriteReg(R15 (PC), 0x20000020)  returns 0x00 (0000ms, 5461ms total)
T1638 987:153 JLINK_WriteReg(XPSR, 0x01000000)  returns 0x00 (0000ms, 5461ms total)
T1638 987:153 JLINK_WriteReg(MSP, 0x20002000)  returns 0x00 (0000ms, 5461ms total)
T1638 987:153 JLINK_WriteReg(PSP, 0x20002000)  returns 0x00 (0000ms, 5461ms total)
T1638 987:153 JLINK_WriteReg(CFBP, 0x00000000)  returns 0x00 (0000ms, 5461ms total)
T1638 987:153 JLINK_SetBPEx(Addr = 0x20000000, Type = 0xFFFFFFF2) -- CPU_ReadMem(2 bytes @ 0x20000000)  returns 0x00000001 (0001ms, 5462ms total)
T1638 987:154 JLINK_Go() -- CPU_WriteMem(2 bytes @ 0x20000000) -- CPU_ReadMem(4 bytes @ 0xE0001000) -- CPU_WriteMem(4 bytes @ 0xE0002008) -- CPU_WriteMem(4 bytes @ 0xE000200C) -- CPU_WriteMem(4 bytes @ 0xE0002010) -- CPU_WriteMem(4 bytes @ 0xE0002014) -- CPU_WriteMem(4 bytes @ 0xE0002018) -- CPU_WriteMem(4 bytes @ 0xE000201C) -- CPU_WriteMem(4 bytes @ 0xE0001004) (0003ms, 5465ms total)
T1638 987:157 JLINK_IsHalted() -- CPU_ReadMem(2 bytes @ 0x20000000)  returns TRUE (0003ms, 5468ms total)
T1638 987:160 JLINK_ReadReg(R15 (PC))  returns 0x20000000 (0000ms, 5465ms total)
T1638 987:160 JLINK_ClrBPEx(BPHandle = 0x00000001)  returns 0x00 (0000ms, 5465ms total)
T1638 987:160 JLINK_ReadReg(R0)  returns 0x00000000 (0000ms, 5465ms total)
T1638 987:160 JLINK_WriteReg(R0, 0x00026000)  returns 0x00 (0000ms, 5465ms total)
T1638 987:160 JLINK_WriteReg(R1, 0x00001000)  returns 0x00 (0000ms, 5465ms total)
T1638 987:160 JLINK_WriteReg(R2, 0x000000FF)  returns 0x00 (0000ms, 5465ms total)
T1638 987:160 JLINK_WriteReg(R3, 0x00000000)  returns 0x00 (0000ms, 5465ms total)
T1638 987:160 JLINK_WriteReg(R4, 0x00000000)  returns 0x00 (0000ms, 5465ms total)
T1638 987:160 JLINK_WriteReg(R5, 0x00000000)  returns 0x00 (0000ms, 5465ms total)
T1638 987:160 JLINK_WriteReg(R6, 0x00000000)  returns 0x00 (0000ms, 5465ms total)
T1638 987:160 JLINK_WriteReg(R7, 0x00000000)  returns 0x00 (0000ms, 5465ms total)
T1638 987:161 JLINK_WriteReg(R8, 0x00000000)  returns 0x00 (0000ms, 5466ms total)
T1638 987:161 JLINK_WriteReg(R9, 0x20000704)  returns 0x00 (0000ms, 5466ms total)
T1638 987:161 JLINK_WriteReg(R10, 0x00000000)  returns 0x00 (0000ms, 5466ms total)
T1638 987:161 JLINK_WriteReg(R11, 0x00000000)  returns 0x00 (0000ms, 5466ms total)
T1638 987:161 JLINK_WriteReg(R12, 0x00000000)  returns 0x00 (0000ms, 5466ms total)
T1638 987:161 JLINK_WriteReg(R13 (SP), 0x20002000)  returns 0x00 (0000ms, 5466ms total)
T1638 987:161 JLINK_WriteReg(R14, 0x20000001)  returns 0x00 (0000ms, 5466ms total)
T1638 987:161 JLINK_WriteReg(R15 (PC), 0x20000314)  returns 0x00 (0000ms, 5466ms total)
T1638 987:161 JLINK_WriteReg(XPSR, 0x01000000)  returns 0x00 (0000ms, 5466ms total)
T1638 987:161 JLINK_WriteReg(MSP, 0x20002000)  returns 0x00 (0000ms, 5466ms total)
T1638 987:161 JLINK_WriteReg(PSP, 0x20002000)  returns 0x00 (0000ms, 5466ms total)
T1638 987:161 JLINK_WriteReg(CFBP, 0x00000000)  returns 0x00 (0000ms, 5466ms total)
T1638 987:161 JLINK_SetBPEx(Addr = 0x20000000, Type = 0xFFFFFFF2)  returns 0x00000002 (0000ms, 5466ms total)
T1638 987:161 JLINK_Go() -- CPU_ReadMem(4 bytes @ 0xE0001000) (0002ms, 5468ms total)
T1638 987:163 JLINK_IsHalted() -- CPU_ReadMem(2 bytes @ 0x20000000)  returns TRUE (0002ms, 5470ms total)
T1638 987:165 JLINK_ReadReg(R15 (PC))  returns 0x20000000 (0000ms, 5468ms total)
T1638 987:165 JLINK_ClrBPEx(BPHandle = 0x00000002)  returns 0x00 (0000ms, 5468ms total)
T1638 987:165 JLINK_ReadReg(R0)  returns 0x00000001 (0000ms, 5468ms total)
T1638 987:165 JLINK_WriteReg(R0, 0x00026000)  returns 0x00 (0000ms, 5468ms total)
T1638 987:165 JLINK_WriteReg(R1, 0x00001000)  returns 0x00 (0000ms, 5468ms total)
T1638 987:165 JLINK_WriteReg(R2, 0x000000FF)  returns 0x00 (0000ms, 5468ms total)
T1638 987:165 JLINK_WriteReg(R3, 0x00000000)  returns 0x00 (0000ms, 5468ms total)
T1638 987:165 JLINK_WriteReg(R4, 0x00000000)  returns 0x00 (0000ms, 5468ms total)
T1638 987:165 JLINK_WriteReg(R5, 0x00000000)  returns 0x00 (0000ms, 5468ms total)
T1638 987:165 JLINK_WriteReg(R6, 0x00000000)  returns 0x00 (0000ms, 5468ms total)
T1638 987:165 JLINK_WriteReg(R7, 0x00000000)  returns 0x00 (0000ms, 5468ms total)
T1638 987:165 JLINK_WriteReg(R8, 0x00000000)  returns 0x00 (0001ms, 5469ms total)
T1638 987:166 JLINK_WriteReg(R9, 0x20000704)  returns 0x00 (0000ms, 5469ms total)
T1638 987:166 JLINK_WriteReg(R10, 0x00000000)  returns 0x00 (0000ms, 5469ms total)
T1638 987:166 JLINK_WriteReg(R11, 0x00000000)  returns 0x00 (0000ms, 5469ms total)
T1638 987:166 JLINK_WriteReg(R12, 0x00000000)  returns 0x00 (0000ms, 5469ms total)
T1638 987:166 JLINK_WriteReg(R13 (SP), 0x20002000)  returns 0x00 (0000ms, 5469ms total)
T1638 987:166 JLINK_WriteReg(R14, 0x20000001)  returns 0x00 (0000ms, 5469ms total)
T1638 987:166 JLINK_WriteReg(R15 (PC), 0x20000158)  returns 0x00 (0000ms, 5469ms total)
T1638 987:166 JLINK_WriteReg(XPSR, 0x01000000)  returns 0x00 (0000ms, 5469ms total)
T1638 987:166 JLINK_WriteReg(MSP, 0x20002000)  returns 0x00 (0000ms, 5469ms total)
T1638 987:166 JLINK_WriteReg(PSP, 0x20002000)  returns 0x00 (0000ms, 5469ms total)
T1638 987:166 JLINK_WriteReg(CFBP, 0x00000000)  returns 0x00 (0000ms, 5469ms total)
T1638 987:166 JLINK_SetBPEx(Addr = 0x20000000, Type = 0xFFFFFFF2)  returns 0x00000003 (0000ms, 5469ms total)
T1638 987:166 JLINK_Go() -- CPU_ReadMem(4 bytes @ 0xE0001000) (0002ms, 5471ms total)
T1638 987:168 JLINK_IsHalted()  returns FALSE (0001ms, 5472ms total)
T1638 987:196 JLINK_IsHalted() -- CPU_ReadMem(2 bytes @ 0x20000000)  returns TRUE (0002ms, 5473ms total)
T1638 987:198 JLINK_ReadReg(R15 (PC))  returns 0x20000000 (0000ms, 5471ms total)
T1638 987:198 JLINK_ClrBPEx(BPHandle = 0x00000003)  returns 0x00 (0000ms, 5471ms total)
T1638 987:198 JLINK_ReadReg(R0)  returns 0x00000000 (0000ms, 5471ms total)
T1638 987:199 JLINK_WriteReg(R0, 0x00027000)  returns 0x00 (0000ms, 5471ms total)
T1638 987:199 JLINK_WriteReg(R1, 0x00001000)  returns 0x00 (0000ms, 5471ms total)
T1638 987:199 JLINK_WriteReg(R2, 0x000000FF)  returns 0x00 (0000ms, 5471ms total)
T1638 987:199 JLINK_WriteReg(R3, 0x00000000)  returns 0x00 (0000ms, 5471ms total)
T1638 987:199 JLINK_WriteReg(R4, 0x00000000)  returns 0x00 (0000ms, 5471ms total)
T1638 987:199 JLINK_WriteReg(R5, 0x00000000)  returns 0x00 (0000ms, 5471ms total)
T1638 987:199 JLINK_WriteReg(R6, 0x00000000)  returns 0x00 (0000ms, 5471ms total)
T1638 987:199 JLINK_WriteReg(R7, 0x00000000)  returns 0x00 (0000ms, 5471ms total)
T1638 987:199 JLINK_WriteReg(R8, 0x00000000)  returns 0x00 (0000ms, 5471ms total)
T1638 987:199 JLINK_WriteReg(R9, 0x20000704)  returns 0x00 (0000ms, 5471ms total)
T1638 987:199 JLINK_WriteReg(R10, 0x00000000)  returns 0x00 (0001ms, 5472ms total)
T1638 987:200 JLINK_WriteReg(R11, 0x00000000)  returns 0x00 (0000ms, 5472ms total)
T1638 987:200 JLINK_WriteReg(R12, 0x00000000)  returns 0x00 (0000ms, 5472ms total)
T1638 987:200 JLINK_WriteReg(R13 (SP), 0x20002000)  returns 0x00 (0000ms, 5472ms total)
T1638 987:200 JLINK_WriteReg(R14, 0x20000001)  returns 0x00 (0000ms, 5472ms total)
T1638 987:200 JLINK_WriteReg(R15 (PC), 0x20000314)  returns 0x00 (0000ms, 5472ms total)
T1638 987:200 JLINK_WriteReg(XPSR, 0x01000000)  returns 0x00 (0000ms, 5472ms total)
T1638 987:200 JLINK_WriteReg(MSP, 0x20002000)  returns 0x00 (0000ms, 5472ms total)
T1638 987:200 JLINK_WriteReg(PSP, 0x20002000)  returns 0x00 (0000ms, 5472ms total)
T1638 987:200 JLINK_WriteReg(CFBP, 0x00000000)  returns 0x00 (0000ms, 5472ms total)
T1638 987:200 JLINK_SetBPEx(Addr = 0x20000000, Type = 0xFFFFFFF2)  returns 0x00000004 (0000ms, 5472ms total)
T1638 987:200 JLINK_Go() -- CPU_ReadMem(4 bytes @ 0xE0001000) (0002ms, 5474ms total)
T1638 987:202 JLINK_IsHalted() -- CPU_ReadMem(2 bytes @ 0x20000000)  returns TRUE (0002ms, 5476ms total)
T1638 987:204 JLINK_ReadReg(R15 (PC))  returns 0x20000000 (0000ms, 5474ms total)
T1638 987:204 JLINK_ClrBPEx(BPHandle = 0x00000004)  returns 0x00 (0000ms, 5474ms total)
T1638 987:204 JLINK_ReadReg(R0)  returns 0x00000001 (0000ms, 5474ms total)
T1638 987:204 JLINK_WriteReg(R0, 0x00027000)  returns 0x00 (0000ms, 5474ms total)
T1638 987:204 JLINK_WriteReg(R1, 0x00001000)  returns 0x00 (0000ms, 5474ms total)
T1638 987:204 JLINK_WriteReg(R2, 0x000000FF)  returns 0x00 (0000ms, 5474ms total)
T1638 987:204 JLINK_WriteReg(R3, 0x00000000)  returns 0x00 (0000ms, 5474ms total)
T1638 987:204 JLINK_WriteReg(R4, 0x00000000)  returns 0x00 (0000ms, 5474ms total)
T1638 987:204 JLINK_WriteReg(R5, 0x00000000)  returns 0x00 (0001ms, 5475ms total)
T1638 987:205 JLINK_WriteReg(R6, 0x00000000)  returns 0x00 (0000ms, 5475ms total)
T1638 987:205 JLINK_WriteReg(R7, 0x00000000)  returns 0x00 (0000ms, 5475ms total)
T1638 987:205 JLINK_WriteReg(R8, 0x00000000)  returns 0x00 (0000ms, 5475ms total)
T1638 987:205 JLINK_WriteReg(R9, 0x20000704)  returns 0x00 (0000ms, 5475ms total)
T1638 987:205 JLINK_WriteReg(R10, 0x00000000)  returns 0x00 (0000ms, 5475ms total)
T1638 987:205 JLINK_WriteReg(R11, 0x00000000)  returns 0x00 (0000ms, 5475ms total)
T1638 987:205 JLINK_WriteReg(R12, 0x00000000)  returns 0x00 (0000ms, 5475ms total)
T1638 987:205 JLINK_WriteReg(R13 (SP), 0x20002000)  returns 0x00 (0000ms, 5475ms total)
T1638 987:205 JLINK_WriteReg(R14, 0x20000001)  returns 0x00 (0000ms, 5475ms total)
T1638 987:205 JLINK_WriteReg(R15 (PC), 0x20000158)  returns 0x00 (0000ms, 5475ms total)
T1638 987:205 JLINK_WriteReg(XPSR, 0x01000000)  returns 0x00 (0000ms, 5475ms total)
T1638 987:205 JLINK_WriteReg(MSP, 0x20002000)  returns 0x00 (0000ms, 5475ms total)
T1638 987:205 JLINK_WriteReg(PSP, 0x20002000)  returns 0x00 (0000ms, 5475ms total)
T1638 987:205 JLINK_WriteReg(CFBP, 0x00000000)  returns 0x00 (0000ms, 5475ms total)
T1638 987:205 JLINK_SetBPEx(Addr = 0x20000000, Type = 0xFFFFFFF2)  returns 0x00000005 (0000ms, 5475ms total)
T1638 987:205 JLINK_Go() -- CPU_ReadMem(4 bytes @ 0xE0001000) (0002ms, 5477ms total)
T1638 987:207 JLINK_IsHalted()  returns FALSE (0000ms, 5477ms total)
T1638 987:209 JLINK_IsHalted()  returns FALSE (0000ms, 5477ms total)
T1638 987:211 JLINK_IsHalted() -- CPU_ReadMem(2 bytes @ 0x20000000)  returns TRUE (0002ms, 5479ms total)
T1638 987:213 JLINK_ReadReg(R15 (PC))  returns 0x20000000 (0000ms, 5477ms total)
T1638 987:213 JLINK_ClrBPEx(BPHandle = 0x00000005)  returns 0x00 (0000ms, 5477ms total)
T1638 987:213 JLINK_ReadReg(R0)  returns 0x00000000 (0000ms, 5477ms total)
T1638 987:214 JLINK_WriteReg(R0, 0x00028000)  returns 0x00 (0000ms, 5477ms total)
T1638 987:214 JLINK_WriteReg(R1, 0x00001000)  returns 0x00 (0000ms, 5477ms total)
T1638 987:214 JLINK_WriteReg(R2, 0x000000FF)  returns 0x00 (0000ms, 5477ms total)
T1638 987:214 JLINK_WriteReg(R3, 0x00000000)  returns 0x00 (0000ms, 5477ms total)
T1638 987:214 JLINK_WriteReg(R4, 0x00000000)  returns 0x00 (0000ms, 5477ms total)
T1638 987:214 JLINK_WriteReg(R5, 0x00000000)  returns 0x00 (0000ms, 5477ms total)
T1638 987:214 JLINK_WriteReg(R6, 0x00000000)  returns 0x00 (0001ms, 5478ms total)
T1638 987:215 JLINK_WriteReg(R7, 0x00000000)  returns 0x00 (0000ms, 5478ms total)
T1638 987:215 JLINK_WriteReg(R8, 0x00000000)  returns 0x00 (0000ms, 5478ms total)
T1638 987:215 JLINK_WriteReg(R9, 0x20000704)  returns 0x00 (0000ms, 5478ms total)
T1638 987:215 JLINK_WriteReg(R10, 0x00000000)  returns 0x00 (0000ms, 5478ms total)
T1638 987:215 JLINK_WriteReg(R11, 0x00000000)  returns 0x00 (0000ms, 5478ms total)
T1638 987:215 JLINK_WriteReg(R12, 0x00000000)  returns 0x00 (0000ms, 5478ms total)
T1638 987:215 JLINK_WriteReg(R13 (SP), 0x20002000)  returns 0x00 (0000ms, 5478ms total)
T1638 987:215 JLINK_WriteReg(R14, 0x20000001)  returns 0x00 (0000ms, 5478ms total)
T1638 987:215 JLINK_WriteReg(R15 (PC), 0x20000314)  returns 0x00 (0000ms, 5478ms total)
T1638 987:215 JLINK_WriteReg(XPSR, 0x01000000)  returns 0x00 (0000ms, 5478ms total)
T1638 987:215 JLINK_WriteReg(MSP, 0x20002000)  returns 0x00 (0000ms, 5478ms total)
T1638 987:215 JLINK_WriteReg(PSP, 0x20002000)  returns 0x00 (0000ms, 5478ms total)
T1638 987:215 JLINK_WriteReg(CFBP, 0x00000000)  returns 0x00 (0000ms, 5478ms total)
T1638 987:215 JLINK_SetBPEx(Addr = 0x20000000, Type = 0xFFFFFFF2)  returns 0x00000006 (0000ms, 5478ms total)
T1638 987:215 JLINK_Go() -- CPU_ReadMem(4 bytes @ 0xE0001000) (0002ms, 5480ms total)
T1638 987:217 JLINK_IsHalted() -- CPU_ReadMem(2 bytes @ 0x20000000)  returns TRUE (0002ms, 5482ms total)
T1638 987:219 JLINK_ReadReg(R15 (PC))  returns 0x20000000 (0000ms, 5480ms total)
T1638 987:219 JLINK_ClrBPEx(BPHandle = 0x00000006)  returns 0x00 (0000ms, 5480ms total)
T1638 987:219 JLINK_ReadReg(R0)  returns 0x00000001 (0000ms, 5480ms total)
T1638 987:219 JLINK_WriteReg(R0, 0x00028000)  returns 0x00 (0000ms, 5480ms total)
T1638 987:219 JLINK_WriteReg(R1, 0x00001000)  returns 0x00 (0000ms, 5480ms total)
T1638 987:219 JLINK_WriteReg(R2, 0x000000FF)  returns 0x00 (0000ms, 5480ms total)
T1638 987:219 JLINK_WriteReg(R3, 0x00000000)  returns 0x00 (0000ms, 5480ms total)
T1638 987:219 JLINK_WriteReg(R4, 0x00000000)  returns 0x00 (0000ms, 5480ms total)
T1638 987:219 JLINK_WriteReg(R5, 0x00000000)  returns 0x00 (0000ms, 5480ms total)
T1638 987:219 JLINK_WriteReg(R6, 0x00000000)  returns 0x00 (0000ms, 5480ms total)
T1638 987:219 JLINK_WriteReg(R7, 0x00000000)  returns 0x00 (0000ms, 5480ms total)
T1638 987:219 JLINK_WriteReg(R8, 0x00000000)  returns 0x00 (0000ms, 5480ms total)
T1638 987:219 JLINK_WriteReg(R9, 0x20000704)  returns 0x00 (0000ms, 5480ms total)
T1638 987:219 JLINK_WriteReg(R10, 0x00000000)  returns 0x00 (0000ms, 5480ms total)
T1638 987:219 JLINK_WriteReg(R11, 0x00000000)  returns 0x00 (0000ms, 5480ms total)
T1638 987:219 JLINK_WriteReg(R12, 0x00000000)  returns 0x00 (0000ms, 5480ms total)
T1638 987:219 JLINK_WriteReg(R13 (SP), 0x20002000)  returns 0x00 (0000ms, 5480ms total)
T1638 987:219 JLINK_WriteReg(R14, 0x20000001)  returns 0x00 (0000ms, 5480ms total)
T1638 987:219 JLINK_WriteReg(R15 (PC), 0x20000158)  returns 0x00 (0000ms, 5480ms total)
T1638 987:219 JLINK_WriteReg(XPSR, 0x01000000)  returns 0x00 (0000ms, 5480ms total)
T1638 987:219 JLINK_WriteReg(MSP, 0x20002000)  returns 0x00 (0000ms, 5480ms total)
T1638 987:219 JLINK_WriteReg(PSP, 0x20002000)  returns 0x00 (0000ms, 5480ms total)
T1638 987:219 JLINK_WriteReg(CFBP, 0x00000000)  returns 0x00 (0000ms, 5480ms total)
T1638 987:219 JLINK_SetBPEx(Addr = 0x20000000, Type = 0xFFFFFFF2)  returns 0x00000007 (0000ms, 5480ms total)
T1638 987:219 JLINK_Go() -- CPU_ReadMem(4 bytes @ 0xE0001000) (0003ms, 5483ms total)
T1638 987:222 JLINK_IsHalted()  returns FALSE (0001ms, 5484ms total)
T1638 987:226 JLINK_IsHalted() -- CPU_ReadMem(2 bytes @ 0x20000000)  returns TRUE (0002ms, 5485ms total)
T1638 987:228 JLINK_ReadReg(R15 (PC))  returns 0x20000000 (0000ms, 5483ms total)
T1638 987:228 JLINK_ClrBPEx(BPHandle = 0x00000007)  returns 0x00 (0000ms, 5483ms total)
T1638 987:228 JLINK_ReadReg(R0)  returns 0x00000000 (0000ms, 5483ms total)
T1638 987:229 JLINK_WriteReg(R0, 0x00029000)  returns 0x00 (0000ms, 5483ms total)
T1638 987:229 JLINK_WriteReg(R1, 0x00001000)  returns 0x00 (0000ms, 5483ms total)
T1638 987:229 JLINK_WriteReg(R2, 0x000000FF)  returns 0x00 (0000ms, 5483ms total)
T1638 987:229 JLINK_WriteReg(R3, 0x00000000)  returns 0x00 (0000ms, 5483ms total)
T1638 987:229 JLINK_WriteReg(R4, 0x00000000)  returns 0x00 (0000ms, 5483ms total)
T1638 987:229 JLINK_WriteReg(R5, 0x00000000)  returns 0x00 (0000ms, 5483ms total)
T1638 987:229 JLINK_WriteReg(R6, 0x00000000)  returns 0x00 (0000ms, 5483ms total)
T1638 987:229 JLINK_WriteReg(R7, 0x00000000)  returns 0x00 (0000ms, 5483ms total)
T1638 987:229 JLINK_WriteReg(R8, 0x00000000)  returns 0x00 (0000ms, 5483ms total)
T1638 987:229 JLINK_WriteReg(R9, 0x20000704)  returns 0x00 (0000ms, 5483ms total)
T1638 987:229 JLINK_WriteReg(R10, 0x00000000)  returns 0x00 (0000ms, 5483ms total)
T1638 987:229 JLINK_WriteReg(R11, 0x00000000)  returns 0x00 (0000ms, 5483ms total)
T1638 987:229 JLINK_WriteReg(R12, 0x00000000)  returns 0x00 (0000ms, 5483ms total)
T1638 987:229 JLINK_WriteReg(R13 (SP), 0x20002000)  returns 0x00 (0000ms, 5483ms total)
T1638 987:229 JLINK_WriteReg(R14, 0x20000001)  returns 0x00 (0000ms, 5483ms total)
T1638 987:229 JLINK_WriteReg(R15 (PC), 0x20000314)  returns 0x00 (0000ms, 5483ms total)
T1638 987:229 JLINK_WriteReg(XPSR, 0x01000000)  returns 0x00 (0000ms, 5483ms total)
T1638 987:229 JLINK_WriteReg(MSP, 0x20002000)  returns 0x00 (0000ms, 5483ms total)
T1638 987:229 JLINK_WriteReg(PSP, 0x20002000)  returns 0x00 (0000ms, 5483ms total)
T1638 987:229 JLINK_WriteReg(CFBP, 0x00000000)  returns 0x00 (0001ms, 5484ms total)
T1638 987:230 JLINK_SetBPEx(Addr = 0x20000000, Type = 0xFFFFFFF2)  returns 0x00000008 (0000ms, 5484ms total)
T1638 987:230 JLINK_Go() -- CPU_ReadMem(4 bytes @ 0xE0001000) (0002ms, 5486ms total)
T1638 987:232 JLINK_IsHalted() -- CPU_ReadMem(2 bytes @ 0x20000000)  returns TRUE (0001ms, 5487ms total)
T1638 987:233 JLINK_ReadReg(R15 (PC))  returns 0x20000000 (0000ms, 5486ms total)
T1638 987:233 JLINK_ClrBPEx(BPHandle = 0x00000008)  returns 0x00 (0000ms, 5486ms total)
T1638 987:233 JLINK_ReadReg(R0)  returns 0x00000001 (0001ms, 5487ms total)
T1638 987:234 JLINK_WriteReg(R0, 0x00029000)  returns 0x00 (0000ms, 5487ms total)
T1638 987:234 JLINK_WriteReg(R1, 0x00001000)  returns 0x00 (0000ms, 5487ms total)
T1638 987:234 JLINK_WriteReg(R2, 0x000000FF)  returns 0x00 (0000ms, 5487ms total)
T1638 987:234 JLINK_WriteReg(R3, 0x00000000)  returns 0x00 (0000ms, 5487ms total)
T1638 987:234 JLINK_WriteReg(R4, 0x00000000)  returns 0x00 (0000ms, 5487ms total)
T1638 987:234 JLINK_WriteReg(R5, 0x00000000)  returns 0x00 (0000ms, 5487ms total)
T1638 987:234 JLINK_WriteReg(R6, 0x00000000)  returns 0x00 (0000ms, 5487ms total)
T1638 987:234 JLINK_WriteReg(R7, 0x00000000)  returns 0x00 (0000ms, 5487ms total)
T1638 987:234 JLINK_WriteReg(R8, 0x00000000)  returns 0x00 (0000ms, 5487ms total)
T1638 987:234 JLINK_WriteReg(R9, 0x20000704)  returns 0x00 (0000ms, 5487ms total)
T1638 987:234 JLINK_WriteReg(R10, 0x00000000)  returns 0x00 (0000ms, 5487ms total)
T1638 987:234 JLINK_WriteReg(R11, 0x00000000)  returns 0x00 (0000ms, 5487ms total)
T1638 987:234 JLINK_WriteReg(R12, 0x00000000)  returns 0x00 (0000ms, 5487ms total)
T1638 987:234 JLINK_WriteReg(R13 (SP), 0x20002000)  returns 0x00 (0000ms, 5487ms total)
T1638 987:234 JLINK_WriteReg(R14, 0x20000001)  returns 0x00 (0000ms, 5487ms total)
T1638 987:234 JLINK_WriteReg(R15 (PC), 0x20000158)  returns 0x00 (0000ms, 5487ms total)
T1638 987:234 JLINK_WriteReg(XPSR, 0x01000000)  returns 0x00 (0000ms, 5487ms total)
T1638 987:234 JLINK_WriteReg(MSP, 0x20002000)  returns 0x00 (0000ms, 5487ms total)
T1638 987:234 JLINK_WriteReg(PSP, 0x20002000)  returns 0x00 (0000ms, 5487ms total)
T1638 987:234 JLINK_WriteReg(CFBP, 0x00000000)  returns 0x00 (0000ms, 5487ms total)
T1638 987:234 JLINK_SetBPEx(Addr = 0x20000000, Type = 0xFFFFFFF2)  returns 0x00000009 (0000ms, 5487ms total)
T1638 987:234 JLINK_Go() -- CPU_ReadMem(4 bytes @ 0xE0001000) (0003ms, 5490ms total)
T1638 987:237 JLINK_IsHalted()  returns FALSE (0000ms, 5490ms total)
T1638 987:239 JLINK_IsHalted()  returns FALSE (0000ms, 5490ms total)
T1638 987:241 JLINK_IsHalted() -- CPU_ReadMem(2 bytes @ 0x20000000)  returns TRUE (0002ms, 5492ms total)
T1638 987:243 JLINK_ReadReg(R15 (PC))  returns 0x20000000 (0000ms, 5490ms total)
T1638 987:243 JLINK_ClrBPEx(BPHandle = 0x00000009)  returns 0x00 (0000ms, 5490ms total)
T1638 987:243 JLINK_ReadReg(R0)  returns 0x00000000 (0000ms, 5490ms total)
T1638 987:244 JLINK_WriteReg(R0, 0x0002A000)  returns 0x00 (0000ms, 5490ms total)
T1638 987:244 JLINK_WriteReg(R1, 0x00001000)  returns 0x00 (0000ms, 5490ms total)
T1638 987:244 JLINK_WriteReg(R2, 0x000000FF)  returns 0x00 (0000ms, 5490ms total)
T1638 987:244 JLINK_WriteReg(R3, 0x00000000)  returns 0x00 (0000ms, 5490ms total)
T1638 987:244 JLINK_WriteReg(R4, 0x00000000)  returns 0x00 (0000ms, 5490ms total)
T1638 987:244 JLINK_WriteReg(R5, 0x00000000)  returns 0x00 (0000ms, 5490ms total)
T1638 987:244 JLINK_WriteReg(R6, 0x00000000)  returns 0x00 (0000ms, 5490ms total)
T1638 987:244 JLINK_WriteReg(R7, 0x00000000)  returns 0x00 (0000ms, 5490ms total)
T1638 987:244 JLINK_WriteReg(R8, 0x00000000)  returns 0x00 (0000ms, 5490ms total)
T1638 987:244 JLINK_WriteReg(R9, 0x20000704)  returns 0x00 (0000ms, 5490ms total)
T1638 987:244 JLINK_WriteReg(R10, 0x00000000)  returns 0x00 (0000ms, 5490ms total)
T1638 987:244 JLINK_WriteReg(R11, 0x00000000)  returns 0x00 (0000ms, 5490ms total)
T1638 987:244 JLINK_WriteReg(R12, 0x00000000)  returns 0x00 (0000ms, 5490ms total)
T1638 987:244 JLINK_WriteReg(R13 (SP), 0x20002000)  returns 0x00 (0000ms, 5490ms total)
T1638 987:244 JLINK_WriteReg(R14, 0x20000001)  returns 0x00 (0000ms, 5490ms total)
T1638 987:244 JLINK_WriteReg(R15 (PC), 0x20000314)  returns 0x00 (0000ms, 5490ms total)
T1638 987:244 JLINK_WriteReg(XPSR, 0x01000000)  returns 0x00 (0000ms, 5490ms total)
T1638 987:244 JLINK_WriteReg(MSP, 0x20002000)  returns 0x00 (0000ms, 5490ms total)
T1638 987:244 JLINK_WriteReg(PSP, 0x20002000)  returns 0x00 (0000ms, 5490ms total)
T1638 987:244 JLINK_WriteReg(CFBP, 0x00000000)  returns 0x00 (0000ms, 5490ms total)
T1638 987:244 JLINK_SetBPEx(Addr = 0x20000000, Type = 0xFFFFFFF2)  returns 0x0000000A (0000ms, 5490ms total)
T1638 987:244 JLINK_Go() -- CPU_ReadMem(4 bytes @ 0xE0001000) (0003ms, 5493ms total)
T1638 987:247 JLINK_IsHalted() -- CPU_ReadMem(2 bytes @ 0x20000000)  returns TRUE (0002ms, 5495ms total)
T1638 987:249 JLINK_ReadReg(R15 (PC))  returns 0x20000000 (0000ms, 5493ms total)
T1638 987:249 JLINK_ClrBPEx(BPHandle = 0x0000000A)  returns 0x00 (0000ms, 5493ms total)
T1638 987:249 JLINK_ReadReg(R0)  returns 0x00000001 (0000ms, 5493ms total)
T1638 987:249 JLINK_WriteReg(R0, 0x0002A000)  returns 0x00 (0000ms, 5493ms total)
T1638 987:249 JLINK_WriteReg(R1, 0x00001000)  returns 0x00 (0000ms, 5493ms total)
T1638 987:249 JLINK_WriteReg(R2, 0x000000FF)  returns 0x00 (0000ms, 5493ms total)
T1638 987:249 JLINK_WriteReg(R3, 0x00000000)  returns 0x00 (0000ms, 5493ms total)
T1638 987:249 JLINK_WriteReg(R4, 0x00000000)  returns 0x00 (0000ms, 5493ms total)
T1638 987:249 JLINK_WriteReg(R5, 0x00000000)  returns 0x00 (0000ms, 5493ms total)
T1638 987:249 JLINK_WriteReg(R6, 0x00000000)  returns 0x00 (0000ms, 5493ms total)
T1638 987:249 JLINK_WriteReg(R7, 0x00000000)  returns 0x00 (0000ms, 5493ms total)
T1638 987:249 JLINK_WriteReg(R8, 0x00000000)  returns 0x00 (0000ms, 5493ms total)
T1638 987:249 JLINK_WriteReg(R9, 0x20000704)  returns 0x00 (0000ms, 5493ms total)
T1638 987:249 JLINK_WriteReg(R10, 0x00000000)  returns 0x00 (0000ms, 5493ms total)
T1638 987:249 JLINK_WriteReg(R11, 0x00000000)  returns 0x00 (0000ms, 5493ms total)
T1638 987:249 JLINK_WriteReg(R12, 0x00000000)  returns 0x00 (0000ms, 5493ms total)
T1638 987:249 JLINK_WriteReg(R13 (SP), 0x20002000)  returns 0x00 (0001ms, 5494ms total)
T1638 987:250 JLINK_WriteReg(R14, 0x20000001)  returns 0x00 (0000ms, 5494ms total)
T1638 987:250 JLINK_WriteReg(R15 (PC), 0x20000158)  returns 0x00 (0000ms, 5494ms total)
T1638 987:250 JLINK_WriteReg(XPSR, 0x01000000)  returns 0x00 (0000ms, 5494ms total)
T1638 987:250 JLINK_WriteReg(MSP, 0x20002000)  returns 0x00 (0000ms, 5494ms total)
T1638 987:250 JLINK_WriteReg(PSP, 0x20002000)  returns 0x00 (0000ms, 5494ms total)
T1638 987:250 JLINK_WriteReg(CFBP, 0x00000000)  returns 0x00 (0000ms, 5494ms total)
T1638 987:250 JLINK_SetBPEx(Addr = 0x20000000, Type = 0xFFFFFFF2)  returns 0x0000000B (0000ms, 5494ms total)
T1638 987:250 JLINK_Go() -- CPU_ReadMem(4 bytes @ 0xE0001000) (0002ms, 5496ms total)
T1638 987:252 JLINK_IsHalted()  returns FALSE (0001ms, 5497ms total)
T1638 987:255 JLINK_IsHalted() -- CPU_ReadMem(2 bytes @ 0x20000000)  returns TRUE (0002ms, 5498ms total)
T1638 987:257 JLINK_ReadReg(R15 (PC))  returns 0x20000000 (0000ms, 5496ms total)
T1638 987:257 JLINK_ClrBPEx(BPHandle = 0x0000000B)  returns 0x00 (0000ms, 5496ms total)
T1638 987:257 JLINK_ReadReg(R0)  returns 0x00000000 (0000ms, 5496ms total)
T1638 987:258 JLINK_WriteReg(R0, 0x0002B000)  returns 0x00 (0000ms, 5496ms total)
T1638 987:258 JLINK_WriteReg(R1, 0x00001000)  returns 0x00 (0000ms, 5496ms total)
T1638 987:258 JLINK_WriteReg(R2, 0x000000FF)  returns 0x00 (0000ms, 5496ms total)
T1638 987:258 JLINK_WriteReg(R3, 0x00000000)  returns 0x00 (0000ms, 5496ms total)
T1638 987:258 JLINK_WriteReg(R4, 0x00000000)  returns 0x00 (0000ms, 5496ms total)
T1638 987:258 JLINK_WriteReg(R5, 0x00000000)  returns 0x00 (0000ms, 5496ms total)
T1638 987:258 JLINK_WriteReg(R6, 0x00000000)  returns 0x00 (0000ms, 5496ms total)
T1638 987:258 JLINK_WriteReg(R7, 0x00000000)  returns 0x00 (0000ms, 5496ms total)
T1638 987:258 JLINK_WriteReg(R8, 0x00000000)  returns 0x00 (0000ms, 5496ms total)
T1638 987:258 JLINK_WriteReg(R9, 0x20000704)  returns 0x00 (0000ms, 5496ms total)
T1638 987:258 JLINK_WriteReg(R10, 0x00000000)  returns 0x00 (0000ms, 5496ms total)
T1638 987:258 JLINK_WriteReg(R11, 0x00000000)  returns 0x00 (0000ms, 5496ms total)
T1638 987:258 JLINK_WriteReg(R12, 0x00000000)  returns 0x00 (0000ms, 5496ms total)
T1638 987:258 JLINK_WriteReg(R13 (SP), 0x20002000)  returns 0x00 (0000ms, 5496ms total)
T1638 987:258 JLINK_WriteReg(R14, 0x20000001)  returns 0x00 (0000ms, 5496ms total)
T1638 987:258 JLINK_WriteReg(R15 (PC), 0x20000314)  returns 0x00 (0000ms, 5496ms total)
T1638 987:258 JLINK_WriteReg(XPSR, 0x01000000)  returns 0x00 (0000ms, 5496ms total)
T1638 987:258 JLINK_WriteReg(MSP, 0x20002000)  returns 0x00 (0000ms, 5496ms total)
T1638 987:258 JLINK_WriteReg(PSP, 0x20002000)  returns 0x00 (0000ms, 5496ms total)
T1638 987:258 JLINK_WriteReg(CFBP, 0x00000000)  returns 0x00 (0000ms, 5496ms total)
T1638 987:258 JLINK_SetBPEx(Addr = 0x20000000, Type = 0xFFFFFFF2)  returns 0x0000000C (0000ms, 5496ms total)
T1638 987:258 JLINK_Go() -- CPU_ReadMem(4 bytes @ 0xE0001000) (0003ms, 5499ms total)
T1638 987:261 JLINK_IsHalted() -- CPU_ReadMem(2 bytes @ 0x20000000)  returns TRUE (0002ms, 5501ms total)
T1638 987:263 JLINK_ReadReg(R15 (PC))  returns 0x20000000 (0000ms, 5499ms total)
T1638 987:263 JLINK_ClrBPEx(BPHandle = 0x0000000C)  returns 0x00 (0000ms, 5499ms total)
T1638 987:263 JLINK_ReadReg(R0)  returns 0x00000001 (0000ms, 5499ms total)
T1638 987:263 JLINK_WriteReg(R0, 0x0002B000)  returns 0x00 (0000ms, 5499ms total)
T1638 987:263 JLINK_WriteReg(R1, 0x00001000)  returns 0x00 (0000ms, 5499ms total)
T1638 987:263 JLINK_WriteReg(R2, 0x000000FF)  returns 0x00 (0000ms, 5499ms total)
T1638 987:263 JLINK_WriteReg(R3, 0x00000000)  returns 0x00 (0000ms, 5499ms total)
T1638 987:263 JLINK_WriteReg(R4, 0x00000000)  returns 0x00 (0000ms, 5499ms total)
T1638 987:263 JLINK_WriteReg(R5, 0x00000000)  returns 0x00 (0000ms, 5499ms total)
T1638 987:263 JLINK_WriteReg(R6, 0x00000000)  returns 0x00 (0000ms, 5499ms total)
T1638 987:263 JLINK_WriteReg(R7, 0x00000000)  returns 0x00 (0000ms, 5499ms total)
T1638 987:263 JLINK_WriteReg(R8, 0x00000000)  returns 0x00 (0000ms, 5499ms total)
T1638 987:263 JLINK_WriteReg(R9, 0x20000704)  returns 0x00 (0000ms, 5499ms total)
T1638 987:263 JLINK_WriteReg(R10, 0x00000000)  returns 0x00 (0000ms, 5499ms total)
T1638 987:263 JLINK_WriteReg(R11, 0x00000000)  returns 0x00 (0000ms, 5499ms total)
T1638 987:263 JLINK_WriteReg(R12, 0x00000000)  returns 0x00 (0000ms, 5499ms total)
T1638 987:263 JLINK_WriteReg(R13 (SP), 0x20002000)  returns 0x00 (0000ms, 5499ms total)
T1638 987:263 JLINK_WriteReg(R14, 0x20000001)  returns 0x00 (0000ms, 5499ms total)
T1638 987:263 JLINK_WriteReg(R15 (PC), 0x20000158)  returns 0x00 (0000ms, 5499ms total)
T1638 987:263 JLINK_WriteReg(XPSR, 0x01000000)  returns 0x00 (0000ms, 5499ms total)
T1638 987:263 JLINK_WriteReg(MSP, 0x20002000)  returns 0x00 (0000ms, 5499ms total)
T1638 987:263 JLINK_WriteReg(PSP, 0x20002000)  returns 0x00 (0000ms, 5499ms total)
T1638 987:263 JLINK_WriteReg(CFBP, 0x00000000)  returns 0x00 (0000ms, 5499ms total)
T1638 987:263 JLINK_SetBPEx(Addr = 0x20000000, Type = 0xFFFFFFF2)  returns 0x0000000D (0000ms, 5499ms total)
T1638 987:263 JLINK_Go() -- CPU_ReadMem(4 bytes @ 0xE0001000) (0003ms, 5502ms total)
T1638 987:266 JLINK_IsHalted()  returns FALSE (0000ms, 5502ms total)
T1638 987:268 JLINK_IsHalted() -- CPU_ReadMem(2 bytes @ 0x20000000)  returns TRUE (0002ms, 5504ms total)
T1638 987:270 JLINK_ReadReg(R15 (PC))  returns 0x20000000 (0000ms, 5502ms total)
T1638 987:270 JLINK_ClrBPEx(BPHandle = 0x0000000D)  returns 0x00 (0000ms, 5502ms total)
T1638 987:270 JLINK_ReadReg(R0)  returns 0x00000000 (0000ms, 5502ms total)
T1638 987:270 JLINK_WriteReg(R0, 0x00000001)  returns 0x00 (0000ms, 5502ms total)
T1638 987:270 JLINK_WriteReg(R1, 0x00001000)  returns 0x00 (0000ms, 5502ms total)
T1638 987:270 JLINK_WriteReg(R2, 0x000000FF)  returns 0x00 (0000ms, 5502ms total)
T1638 987:270 JLINK_WriteReg(R3, 0x00000000)  returns 0x00 (0000ms, 5502ms total)
T1638 987:270 JLINK_WriteReg(R4, 0x00000000)  returns 0x00 (0000ms, 5502ms total)
T1638 987:270 JLINK_WriteReg(R5, 0x00000000)  returns 0x00 (0000ms, 5502ms total)
T1638 987:270 JLINK_WriteReg(R6, 0x00000000)  returns 0x00 (0000ms, 5502ms total)
T1638 987:270 JLINK_WriteReg(R7, 0x00000000)  returns 0x00 (0001ms, 5503ms total)
T1638 987:271 JLINK_WriteReg(R8, 0x00000000)  returns 0x00 (0000ms, 5503ms total)
T1638 987:271 JLINK_WriteReg(R9, 0x20000704)  returns 0x00 (0000ms, 5503ms total)
T1638 987:271 JLINK_WriteReg(R10, 0x00000000)  returns 0x00 (0000ms, 5503ms total)
T1638 987:271 JLINK_WriteReg(R11, 0x00000000)  returns 0x00 (0000ms, 5503ms total)
T1638 987:271 JLINK_WriteReg(R12, 0x00000000)  returns 0x00 (0000ms, 5503ms total)
T1638 987:271 JLINK_WriteReg(R13 (SP), 0x20002000)  returns 0x00 (0000ms, 5503ms total)
T1638 987:271 JLINK_WriteReg(R14, 0x20000001)  returns 0x00 (0000ms, 5503ms total)
T1638 987:271 JLINK_WriteReg(R15 (PC), 0x20000060)  returns 0x00 (0000ms, 5503ms total)
T1638 987:271 JLINK_WriteReg(XPSR, 0x01000000)  returns 0x00 (0000ms, 5503ms total)
T1638 987:271 JLINK_WriteReg(MSP, 0x20002000)  returns 0x00 (0000ms, 5503ms total)
T1638 987:271 JLINK_WriteReg(PSP, 0x20002000)  returns 0x00 (0000ms, 5503ms total)
T1638 987:271 JLINK_WriteReg(CFBP, 0x00000000)  returns 0x00 (0000ms, 5503ms total)
T1638 987:271 JLINK_SetBPEx(Addr = 0x20000000, Type = 0xFFFFFFF2)  returns 0x0000000E (0000ms, 5503ms total)
T1638 987:271 JLINK_Go() -- CPU_ReadMem(4 bytes @ 0xE0001000) (0002ms, 5505ms total)
T1638 987:273 JLINK_IsHalted() -- CPU_ReadMem(2 bytes @ 0x20000000)  returns TRUE (0003ms, 5508ms total)
T1638 987:276 JLINK_ReadReg(R15 (PC))  returns 0x20000000 (0000ms, 5505ms total)
T1638 987:276 JLINK_ClrBPEx(BPHandle = 0x0000000E)  returns 0x00 (0000ms, 5505ms total)
T1638 987:276 JLINK_ReadReg(R0)  returns 0x00000000 (0000ms, 5505ms total)
T1638 987:338 JLINK_WriteMem(0x20000000, 0x0708 Bytes, ...) - Data: 00 BE 0A E0 0D 78 2D 06 68 40 08 24 40 00 00 D3 ... -- CPU_WriteMem(1800 bytes @ 0x20000000)  returns 0x708 (0008ms, 5513ms total)
T1638 987:346 JLINK_WriteReg(R0, 0x00000000)  returns 0x00 (0000ms, 5513ms total)
T1638 987:346 JLINK_WriteReg(R1, 0x03D09000)  returns 0x00 (0000ms, 5513ms total)
T1638 987:346 JLINK_WriteReg(R2, 0x00000002)  returns 0x00 (0000ms, 5513ms total)
T1638 987:346 JLINK_WriteReg(R3, 0x00000000)  returns 0x00 (0000ms, 5513ms total)
T1638 987:346 JLINK_WriteReg(R4, 0x00000000)  returns 0x00 (0000ms, 5513ms total)
T1638 987:346 JLINK_WriteReg(R5, 0x00000000)  returns 0x00 (0000ms, 5513ms total)
T1638 987:346 JLINK_WriteReg(R6, 0x00000000)  returns 0x00 (0000ms, 5513ms total)
T1638 987:346 JLINK_WriteReg(R7, 0x00000000)  returns 0x00 (0000ms, 5513ms total)
T1638 987:346 JLINK_WriteReg(R8, 0x00000000)  returns 0x00 (0000ms, 5513ms total)
T1638 987:346 JLINK_WriteReg(R9, 0x20000704)  returns 0x00 (0000ms, 5513ms total)
T1638 987:346 JLINK_WriteReg(R10, 0x00000000)  returns 0x00 (0000ms, 5513ms total)
T1638 987:346 JLINK_WriteReg(R11, 0x00000000)  returns 0x00 (0000ms, 5513ms total)
T1638 987:346 JLINK_WriteReg(R12, 0x00000000)  returns 0x00 (0000ms, 5513ms total)
T1638 987:346 JLINK_WriteReg(R13 (SP), 0x20002000)  returns 0x00 (0000ms, 5513ms total)
T1638 987:346 JLINK_WriteReg(R14, 0x20000001)  returns 0x00 (0000ms, 5513ms total)
T1638 987:346 JLINK_WriteReg(R15 (PC), 0x20000020)  returns 0x00 (0000ms, 5513ms total)
T1638 987:346 JLINK_WriteReg(XPSR, 0x01000000)  returns 0x00 (0000ms, 5513ms total)
T1638 987:346 JLINK_WriteReg(MSP, 0x20002000)  returns 0x00 (0000ms, 5513ms total)
T1638 987:346 JLINK_WriteReg(PSP, 0x20002000)  returns 0x00 (0000ms, 5513ms total)
T1638 987:346 JLINK_WriteReg(CFBP, 0x00000000)  returns 0x00 (0000ms, 5513ms total)
T1638 987:346 JLINK_SetBPEx(Addr = 0x20000000, Type = 0xFFFFFFF2) -- CPU_ReadMem(2 bytes @ 0x20000000)  returns 0x0000000F (0000ms, 5513ms total)
T1638 987:346 JLINK_Go() -- CPU_WriteMem(2 bytes @ 0x20000000) -- CPU_ReadMem(4 bytes @ 0xE0001000) (0003ms, 5516ms total)
T1638 987:349 JLINK_IsHalted() -- CPU_ReadMem(2 bytes @ 0x20000000)  returns TRUE (0002ms, 5518ms total)
T1638 987:351 JLINK_ReadReg(R15 (PC))  returns 0x20000000 (0000ms, 5516ms total)
T1638 987:351 JLINK_ClrBPEx(BPHandle = 0x0000000F)  returns 0x00 (0000ms, 5516ms total)
T1638 987:351 JLINK_ReadReg(R0)  returns 0x00000000 (0000ms, 5516ms total)
T1638 987:352 JLINK_WriteMem(0x20000718, 0x00E8 Bytes, ...) - Data: 70 4C 00 20 C1 63 02 00 C9 63 02 00 CB 63 02 00 ... -- CPU_WriteMem(232 bytes @ 0x20000718)  returns 0xE8 (0001ms, 5517ms total)
T1638 987:353 JLINK_WriteMem(0x20000800, 0x0400 Bytes, ...) - Data: 00 00 00 00 00 00 00 00 00 00 00 00 00 00 00 00 ... -- CPU_WriteMem(1024 bytes @ 0x20000800)  returns 0x400 (0004ms, 5521ms total)
T1638 987:357 JLINK_WriteMem(0x20000C00, 0x0400 Bytes, ...) - Data: FF 0F 15 D0 01 27 00 24 37 42 0D D0 09 EB 84 01 ... -- CPU_WriteMem(1024 bytes @ 0x20000C00)  returns 0x400 (0004ms, 5525ms total)
T1638 987:361 JLINK_WriteMem(0x20001000, 0x0400 Bytes, ...) - Data: 00 2C FC D0 15 24 C1 F8 00 42 05 68 00 2D FC D0 ... -- CPU_WriteMem(1024 bytes @ 0x20001000)  returns 0x400 (0004ms, 5529ms total)
T1638 987:365 JLINK_WriteMem(0x20001400, 0x0318 Bytes, ...) - Data: 4F F0 E0 23 D3 F8 80 51 07 4C 25 40 15 60 C3 F8 ... -- CPU_WriteMem(792 bytes @ 0x20001400)  returns 0x318 (0003ms, 5532ms total)
T1638 987:368 JLINK_WriteReg(R0, 0x00026000)  returns 0x00 (0000ms, 5532ms total)
T1638 987:368 JLINK_WriteReg(R1, 0x00001000)  returns 0x00 (0000ms, 5532ms total)
T1638 987:368 JLINK_WriteReg(R2, 0x20000718)  returns 0x00 (0000ms, 5532ms total)
T1638 987:368 JLINK_WriteReg(R3, 0x00000000)  returns 0x00 (0000ms, 5532ms total)
T1638 987:368 JLINK_WriteReg(R4, 0x00000000)  returns 0x00 (0000ms, 5532ms total)
T1638 987:368 JLINK_WriteReg(R5, 0x00000000)  returns 0x00 (0000ms, 5532ms total)
T1638 987:368 JLINK_WriteReg(R6, 0x00000000)  returns 0x00 (0000ms, 5532ms total)
T1638 987:368 JLINK_WriteReg(R7, 0x00000000)  returns 0x00 (0000ms, 5532ms total)
T1638 987:368 JLINK_WriteReg(R8, 0x00000000)  returns 0x00 (0000ms, 5532ms total)
T1638 987:368 JLINK_WriteReg(R9, 0x20000704)  returns 0x00 (0000ms, 5532ms total)
T1638 987:368 JLINK_WriteReg(R10, 0x00000000)  returns 0x00 (0000ms, 5532ms total)
T1638 987:368 JLINK_WriteReg(R11, 0x00000000)  returns 0x00 (0000ms, 5532ms total)
T1638 987:368 JLINK_WriteReg(R12, 0x00000000)  returns 0x00 (0001ms, 5533ms total)
T1638 987:369 JLINK_WriteReg(R13 (SP), 0x20002000)  returns 0x00 (0000ms, 5533ms total)
T1638 987:369 JLINK_WriteReg(R14, 0x20000001)  returns 0x00 (0000ms, 5533ms total)
T1638 987:369 JLINK_WriteReg(R15 (PC), 0x200001DC)  returns 0x00 (0000ms, 5533ms total)
T1638 987:369 JLINK_WriteReg(XPSR, 0x01000000)  returns 0x00 (0000ms, 5533ms total)
T1638 987:369 JLINK_WriteReg(MSP, 0x20002000)  returns 0x00 (0000ms, 5533ms total)
T1638 987:369 JLINK_WriteReg(PSP, 0x20002000)  returns 0x00 (0000ms, 5533ms total)
T1638 987:369 JLINK_WriteReg(CFBP, 0x00000000)  returns 0x00 (0000ms, 5533ms total)
T1638 987:369 JLINK_SetBPEx(Addr = 0x20000000, Type = 0xFFFFFFF2)  returns 0x00000010 (0000ms, 5533ms total)
T1638 987:369 JLINK_Go() -- CPU_ReadMem(4 bytes @ 0xE0001000) (0002ms, 5535ms total)
T1638 987:371 JLINK_IsHalted()  returns FALSE (0000ms, 5535ms total)
T1638 987:378 JLINK_IsHalted()  returns FALSE (0000ms, 5535ms total)
T1638 987:380 JLINK_IsHalted()  returns FALSE (0000ms, 5535ms total)
T1638 987:383 JLINK_IsHalted()  returns FALSE (0001ms, 5536ms total)
T1638 987:386 JLINK_IsHalted()  returns FALSE (0000ms, 5535ms total)
T1638 987:388 JLINK_IsHalted()  returns FALSE (0000ms, 5535ms total)
T1638 987:391 JLINK_IsHalted()  returns FALSE (0000ms, 5535ms total)
T1638 987:393 JLINK_IsHalted()  returns FALSE (0000ms, 5535ms total)
T1638 987:395 JLINK_IsHalted()  returns FALSE (0000ms, 5535ms total)
T1638 987:398 JLINK_IsHalted()  returns FALSE (0001ms, 5536ms total)
T1638 987:401 JLINK_IsHalted()  returns FALSE (0000ms, 5535ms total)
T1638 987:403 JLINK_IsHalted()  returns FALSE (0000ms, 5535ms total)
T1638 987:406 JLINK_IsHalted()  returns FALSE (0000ms, 5535ms total)
T1638 987:408 JLINK_IsHalted()  returns FALSE (0000ms, 5535ms total)
T1638 987:410 JLINK_IsHalted()  returns FALSE (0000ms, 5535ms total)
T1638 987:412 JLINK_IsHalted()  returns FALSE (0001ms, 5536ms total)
T1638 987:416 JLINK_IsHalted()  returns FALSE (0000ms, 5535ms total)
T1638 987:418 JLINK_IsHalted()  returns FALSE (0000ms, 5535ms total)
T1638 987:420 JLINK_IsHalted()  returns FALSE (0000ms, 5535ms total)
T1638 987:423 JLINK_IsHalted()  returns FALSE (0000ms, 5535ms total)
T1638 987:425 JLINK_IsHalted()  returns FALSE (0000ms, 5535ms total)
T1638 987:427 JLINK_IsHalted()  returns FALSE (0001ms, 5536ms total)
T1638 987:431 JLINK_IsHalted()  returns FALSE (0000ms, 5535ms total)
T1638 987:433 JLINK_IsHalted()  returns FALSE (0000ms, 5535ms total)
T1638 987:435 JLINK_IsHalted()  returns FALSE (0000ms, 5535ms total)
T1638 987:439 JLINK_IsHalted()  returns FALSE (0001ms, 5536ms total)
T1638 987:442 JLINK_IsHalted() -- CPU_ReadMem(2 bytes @ 0x20000000)  returns TRUE (0002ms, 5537ms total)
T1638 987:444 JLINK_ReadReg(R15 (PC))  returns 0x20000000 (0000ms, 5535ms total)
T1638 987:444 JLINK_ClrBPEx(BPHandle = 0x00000010)  returns 0x00 (0000ms, 5535ms total)
T1638 987:444 JLINK_ReadReg(R0)  returns 0x00000000 (0000ms, 5535ms total)
T1638 987:444 JLINK_WriteMem(0x20000718, 0x00E8 Bytes, ...) - Data: 29 60 40 68 68 60 05 E0 0E 20 70 BD 0B 48 7B DF ... -- CPU_WriteMem(232 bytes @ 0x20000718)  returns 0xE8 (0002ms, 5537ms total)
T1638 987:446 JLINK_WriteMem(0x20000800, 0x0400 Bytes, ...) - Data: 56 29 37 D1 80 88 13 21 76 DF 12 E0 22 A1 02 F0 ... -- CPU_WriteMem(1024 bytes @ 0x20000800)  returns 0x400 (0003ms, 5540ms total)
T1638 987:449 JLINK_WriteMem(0x20000C00, 0x0400 Bytes, ...) - Data: 0E D0 10 4F 00 24 01 22 38 5D 00 95 00 23 11 46 ... -- CPU_WriteMem(1024 bytes @ 0x20000C00)  returns 0x400 (0005ms, 5545ms total)
T1638 987:454 JLINK_WriteMem(0x20001000, 0x0400 Bytes, ...) - Data: 00 29 07 D0 08 68 20 60 49 68 28 46 88 47 F6 E7 ... -- CPU_WriteMem(1024 bytes @ 0x20001000)  returns 0x400 (0003ms, 5548ms total)
T1638 987:457 JLINK_WriteMem(0x20001400, 0x0318 Bytes, ...) - Data: 70 47 00 68 01 21 41 60 70 47 2D E9 F0 5F 07 46 ... -- CPU_WriteMem(792 bytes @ 0x20001400)  returns 0x318 (0004ms, 5552ms total)
T1638 987:461 JLINK_WriteReg(R0, 0x00027000)  returns 0x00 (0000ms, 5552ms total)
T1638 987:461 JLINK_WriteReg(R1, 0x00001000)  returns 0x00 (0000ms, 5552ms total)
T1638 987:461 JLINK_WriteReg(R2, 0x20000718)  returns 0x00 (0000ms, 5552ms total)
T1638 987:461 JLINK_WriteReg(R3, 0x00000000)  returns 0x00 (0000ms, 5552ms total)
T1638 987:461 JLINK_WriteReg(R4, 0x00000000)  returns 0x00 (0000ms, 5552ms total)
T1638 987:461 JLINK_WriteReg(R5, 0x00000000)  returns 0x00 (0000ms, 5552ms total)
T1638 987:461 JLINK_WriteReg(R6, 0x00000000)  returns 0x00 (0000ms, 5552ms total)
T1638 987:461 JLINK_WriteReg(R7, 0x00000000)  returns 0x00 (0000ms, 5552ms total)
